CITIFILE A.01.01
!Keysight Technologies,N5222A,MY56022371,A.10.47.06
!Format: Real/Imaginary
!Date: Wednesday, February 16, 2022 12:57:56
NAME CH1_DATA
VAR Freq MAG 301
DATA S[1,1] RI
DATA S[1,2] RI
DATA S[2,1] RI
DATA S[2,2] RI
VAR_LIST_BEGIN
2000000000
2010000000
2020000000
2030000000
2040000000
2050000000
2060000000
2070000000
2080000000
2090000000
2100000000
2110000000
2120000000
2130000000
2140000000
2150000000
2160000000
2170000000
2180000000
2190000000
2200000000
2210000000
2220000000
2230000000
2240000000
2250000000
2260000000
2270000000
2280000000
2290000000
2300000000
2310000000
2320000000
2330000000
2340000000
2350000000
2360000000
2370000000
2380000000
2390000000
2400000000
2410000000
2420000000
2430000000
2440000000
2450000000
2460000000
2470000000
2480000000
2490000000
2500000000
2510000000
2520000000
2530000000
2540000000
2550000000
2560000000
2570000000
2580000000
2590000000
2600000000
2610000000
2620000000
2630000000
2640000000
2650000000
2660000000
2670000000
2680000000
2690000000
2700000000
2710000000
2720000000
2730000000
2740000000
2750000000
2760000000
2770000000
2780000000
2790000000
2800000000
2810000000
2820000000
2830000000
2840000000
2850000000
2860000000
2870000000
2880000000
2890000000
2900000000
2910000000
2920000000
2930000000
2940000000
2950000000
2960000000
2970000000
2980000000
2990000000
3000000000
3010000000
3020000000
3030000000
3040000000
3050000000
3060000000
3070000000
3080000000
3090000000
3100000000
3110000000
3120000000
3130000000
3140000000
3150000000
3160000000
3170000000
3180000000
3190000000
3200000000
3210000000
3220000000
3230000000
3240000000
3250000000
3260000000
3270000000
3280000000
3290000000
3300000000
3310000000
3320000000
3330000000
3340000000
3350000000
3360000000
3370000000
3380000000
3390000000
3400000000
3410000000
3420000000
3430000000
3440000000
3450000000
3460000000
3470000000
3480000000
3490000000
3500000000
3510000000
3520000000
3530000000
3540000000
3550000000
3560000000
3570000000
3580000000
3590000000
3600000000
3610000000
3620000000
3630000000
3640000000
3650000000
3660000000
3670000000
3680000000
3690000000
3700000000
3710000000
3720000000
3730000000
3740000000
3750000000
3760000000
3770000000
3780000000
3790000000
3800000000
3810000000
3820000000
3830000000
3840000000
3850000000
3860000000
3870000000
3880000000
3890000000
3900000000
3910000000
3920000000
3930000000
3940000000
3950000000
3960000000
3970000000
3980000000
3990000000
4000000000
4010000000
4020000000
4030000000
4040000000
4050000000
4060000000
4070000000
4080000000
4090000000
4100000000
4110000000
4120000000
4130000000
4140000000
4150000000
4160000000
4170000000
4180000000
4190000000
4200000000
4210000000
4220000000
4230000000
4240000000
4250000000
4260000000
4270000000
4280000000
4290000000
4300000000
4310000000
4320000000
4330000000
4340000000
4350000000
4360000000
4370000000
4380000000
4390000000
4400000000
4410000000
4420000000
4430000000
4440000000
4450000000
4460000000
4470000000
4480000000
4490000000
4500000000
4510000000
4520000000
4530000000
4540000000
4550000000
4560000000
4570000000
4580000000
4590000000
4600000000
4610000000
4620000000
4630000000
4640000000
4650000000
4660000000
4670000000
4680000000
4690000000
4700000000
4710000000
4720000000
4730000000
4740000000
4750000000
4760000000
4770000000
4780000000
4790000000
4800000000
4810000000
4820000000
4830000000
4840000000
4850000000
4860000000
4870000000
4880000000
4890000000
4900000000
4910000000
4920000000
4930000000
4940000000
4950000000
4960000000
4970000000
4980000000
4990000000
5000000000
VAR_LIST_END
BEGIN
-0.23077641,-0.38386095
-0.24018238,-0.36424813
-0.25330341,-0.34999761
-0.27106678,-0.32736671
-0.2808629,-0.30524811
-0.29157284,-0.28199884
-0.2989172,-0.26012215
-0.30617839,-0.23828453
-0.31391293,-0.21385635
-0.31498659,-0.19184718
-0.31683254,-0.17427011
-0.32393709,-0.15484813
-0.32825136,-0.13233081
-0.33072537,-0.1092539
-0.33135334,-0.087876305
-0.33451971,-0.066102028
-0.33668843,-0.040532432
-0.33736059,-0.013932096
-0.33729035,0.015675901
-0.33416635,0.050986223
-0.32477847,0.090433381
-0.30358726,0.13075577
-0.27620992,0.16430159
-0.24541706,0.19801635
-0.20415096,0.23006172
-0.15396668,0.25128835
-0.099872977,0.26413888
-0.040111654,0.26808977
0.023562638,0.25324085
0.082642093,0.22350422
0.12879848,0.17534564
0.16064011,0.1223352
0.17804484,0.063315675
0.18017708,0.0028968283
0.1654789,-0.05286523
0.14008945,-0.10028209
0.10351427,-0.13553703
0.064170763,-0.15778691
0.025985954,-0.16796257
-0.010033825,-0.17077483
-0.041051153,-0.1616483
-0.06244272,-0.14850511
-0.075589895,-0.13653566
-0.087128006,-0.12714761
-0.097350463,-0.11692174
-0.10532405,-0.10857361
-0.10791295,-0.096022077
-0.10679281,-0.09346357
-0.11291569,-0.088734075
-0.11097427,-0.083916254
-0.11069869,-0.088761039
-0.11776738,-0.095410779
-0.12566249,-0.095072344
-0.13123795,-0.1025015
-0.14759514,-0.11380109
-0.17354472,-0.11847297
-0.20210692,-0.11282376
-0.2290114,-0.10096839
-0.2577025,-0.08506462
-0.28963616,-0.051519014
-0.29840881,-0.003905314
-0.28950068,0.029233588
-0.28835428,0.047546782
-0.29758716,0.078671493
-0.29377249,0.11911929
-0.28440005,0.16009311
-0.26117739,0.20875199
-0.21379523,0.24961671
-0.15309463,0.25900355
-0.11357042,0.24482596
-0.092928991,0.23392914
-0.074707642,0.23478806
-0.05205724,0.23298702
-0.02814579,0.23277673
0.0025186038,0.22773659
0.029774528,0.20887351
0.046294276,0.18795423
0.060475759,0.16751122
0.066378839,0.14404374
0.064818323,0.13242213
0.07370533,0.12062815
0.075054646,0.10712506
0.080491334,0.09839727
0.086966835,0.085043766
0.091555342,0.066073455
0.086577758,0.046901479
0.074139893,0.03390637
0.064548589,0.034646343
0.065045886,0.032971799
0.068512261,0.026527828
0.065744206,0.014975883
0.061571639,0.0073480937
0.058012567,-0.003966752
0.049110919,-0.014966567
0.033353318,-0.022030074
0.019554825,-0.020649496
0.010589564,-0.016277254
0.0062970552,-0.014625696
0.00057803089,-0.013631323
-0.001522026,-0.014668132
-0.0097340122,-0.017567119
-0.018186517,-0.01615333
-0.02486906,-0.013596769
-0.03022301,-0.010029652
-0.038089875,-0.0086802626
-0.044828746,-0.001317043
-0.048935659,0.0035347606
-0.056073118,0.0086226342
-0.059054714,0.018484415
-0.060339212,0.024709903
-0.065881766,0.02951033
-0.067447893,0.040587552
-0.070404805,0.046718922
-0.075412743,0.061245069
-0.06830319,0.074279189
-0.063155264,0.0831974
-0.058209166,0.089924835
-0.051381737,0.098241046
-0.042890526,0.10091742
-0.038196944,0.10390206
-0.034386102,0.10839609
-0.029262289,0.11341804
-0.021431772,0.12048788
-0.0089489408,0.12541634
0.0016886316,0.12489998
0.0096552912,0.12796937
0.024416193,0.13161846
0.04170185,0.12515582
0.050839648,0.11803027
0.062863335,0.11123712
0.071946211,0.10003001
0.074768141,0.090743639
0.082542121,0.084228888
0.088566363,0.072899863
0.092463583,0.063131981
0.098876409,0.051075846
0.097728163,0.032789961
0.093079254,0.020312024
0.086649641,0.0078445049
0.07833419,-0.0022977858
0.068806551,-0.0069374344
0.063134313,-0.01275105
0.055269897,-0.021962764
0.04350847,-0.027076134
0.031652499,-0.030597351
0.019911187,-0.032483522
0.0020583863,-0.031789888
-0.0090691708,-0.023718275
-0.018868016,-0.017686885
-0.030328022,-0.010449889
-0.039760828,0.00074584916
-0.04606241,0.012940334
-0.053320475,0.023101434
-0.059173226,0.039698023
-0.058161899,0.055572279
-0.056968182,0.069626868
-0.057891697,0.082152434
-0.054136503,0.1012044
-0.04626124,0.11530575
-0.038252551,0.13021183
-0.025978334,0.145353
-0.0091716051,0.1544552
0.001274933,0.15900598
0.011840809,0.16647574
0.023329543,0.17530327
0.036216509,0.18252705
0.051237263,0.19267236
0.068735629,0.197668
0.087145887,0.20292328
0.10572679,0.206278
0.12860702,0.20766537
0.1506214,0.20330249
0.16888918,0.19650967
0.18862788,0.1879659
0.20381431,0.17714445
0.21664515,0.16913059
0.23355064,0.16125171
0.25058857,0.1472197
0.26330751,0.13326328
0.27675056,0.12188125
0.2923924,0.10504349
0.30581409,0.085934773
0.3148503,0.066059977
0.32530946,0.047431763
0.33457157,0.023560591
0.33837524,4.1638294e-005
0.34071758,-0.022003068
0.34106824,-0.04451469
0.34016991,-0.064529359
0.33958513,-0.082505755
0.34158874,-0.10296651
0.33969125,-0.12618434
0.3350212,-0.14772892
0.33107308,-0.16829214
0.32580987,-0.19235231
0.31358522,-0.21569246
0.30377486,-0.23268494
0.29545283,-0.25424105
0.28179687,-0.27789867
0.26566064,-0.29908943
0.24919431,-0.3172614
0.23021212,-0.3401688
0.20481345,-0.35721487
0.18215273,-0.36998951
0.16106918,-0.38494429
0.13447209,-0.39897028
0.10628357,-0.40890658
0.077296704,-0.41472575
0.051745173,-0.41860253
0.025539065,-0.42323175
-0.0047593126,-0.42736918
-0.036379561,-0.42468512
-0.066832609,-0.41856292
-0.095002688,-0.40782282
-0.12029143,-0.39760575
-0.1443904,-0.38430372
-0.16762835,-0.37094694
-0.19129668,-0.35675377
-0.21348272,-0.33582059
-0.22754723,-0.31534407
-0.2438511,-0.29820704
-0.25685835,-0.27607647
-0.26730567,-0.25810987
-0.27905738,-0.24108283
-0.29131046,-0.21933384
-0.29720464,-0.19556478
-0.30075404,-0.17738891
-0.30618408,-0.15882866
-0.31008792,-0.13876139
-0.31336138,-0.12125048
-0.31793424,-0.10055587
-0.31935826,-0.078342855
-0.31794044,-0.057119712
-0.31799212,-0.038231876
-0.31717047,-0.013015136
-0.30889544,0.0092567457
-0.30113232,0.029187087
-0.2928296,0.048533447
-0.28234261,0.067650415
-0.27028745,0.08617226
-0.25459337,0.10055979
-0.24027973,0.11206983
-0.22732969,0.12419526
-0.2104007,0.1359884
-0.19301637,0.14270021
-0.17702293,0.14786316
-0.16233887,0.15299316
-0.14565812,0.15703832
-0.13065854,0.1596058
-0.11402466,0.16356915
-0.093708903,0.16503377
-0.073945105,0.15816276
-0.062058978,0.15078866
-0.05084623,0.14708553
-0.038004503,0.14436895
-0.024447018,0.138758
-0.011391507,0.13309762
0.0030534144,0.12352623
0.015517205,0.1104788
0.023503486,0.094982915
0.027500553,0.079319522
0.02796161,0.065229759
0.028927561,0.052073047
0.026777061,0.037564486
0.022688504,0.026888328
0.020977536,0.013408623
0.010830463,-0.0033253098
-0.0049710949,-0.010575914
-0.015136939,-0.011024726
-0.022207413,-0.013208184
-0.030377679,-0.01720521
-0.039678819,-0.018153397
-0.049012441,-0.017661173
-0.058746673,-0.015433982
-0.066863731,-0.0091515267
-0.070072472,-0.0011165881
-0.072351001,0.0022069702
-0.078126296,0.0068656253
-0.080642194,0.017188489
-0.076372914,0.02624619
-0.070820078,0.025958048
-0.07203491,0.026414134
-0.071984835,0.028831134
-0.072605461,0.028619934
-0.075139992,0.032584287
-0.072964229,0.036385112
-0.071980849,0.035006627
-0.076888807,0.03621038
-0.079592161,0.042693716
-0.077723026,0.051730912
-0.069982648,0.054877397
-0.066877805,0.053442124
-0.064913362,0.055094924
-0.061800703,0.053888045
-0.062192742,0.052904367
-0.061011091,0.052722253
-0.062359318,0.051874574
-0.06438639,0.053174205
-0.064816728,0.052718282
-0.068481967,0.052326582
-0.071654402,0.055153579
END
BEGIN
0.020550285,0.12688754
0.031530887,0.13114026
0.043570876,0.13380344
0.056910507,0.13793458
0.076829731,0.14025825
0.095297903,0.1345031
0.11239648,0.12585008
0.12467413,0.11802317
0.14125079,0.11272978
0.16105698,0.098567382
0.17544384,0.080568641
0.18705757,0.061602697
0.19496936,0.03924587
0.1970323,0.020068621
0.20282993,0.0002209308
0.20293292,-0.023324501
0.19791327,-0.044677272
0.19322091,-0.060472883
0.18966179,-0.079028815
0.1837468,-0.099921271
0.17087293,-0.11956745
0.15641417,-0.13382904
0.1436556,-0.14476497
0.13266645,-0.15456893
0.12398763,-0.16660094
0.11303417,-0.18193091
0.095980883,-0.19908606
0.074834406,-0.21341258
0.04967073,-0.22078891
0.027776957,-0.22604582
0.0053876382,-0.23003864
-0.020973869,-0.23450327
-0.050253358,-0.23069863
-0.077723391,-0.22387426
-0.10370046,-0.21140142
-0.1283136,-0.19356352
-0.14351866,-0.1742228
-0.15930973,-0.15651296
-0.17360578,-0.13897519
-0.18816213,-0.11575264
-0.19823614,-0.093343623
-0.2065803,-0.065795049
-0.20913889,-0.037033472
-0.20442717,-0.0080735013
-0.19571328,0.01225276
-0.19218619,0.03641874
-0.17776538,0.064072661
-0.15605956,0.080301911
-0.14196698,0.094916128
-0.12019342,0.11329409
-0.092293873,0.12104932
-0.068960115,0.12031434
-0.047015332,0.12218723
-0.023040731,0.11608681
-0.0070185615,0.10780511
0.012678844,0.10241631
0.035016261,0.088957071
0.053371202,0.067041099
0.066493705,0.042726569
0.075771101,0.008082387
0.065479271,-0.032408111
0.033605907,-0.058734413
0.0073276744,-0.060802609
-0.0033495475,-0.064373262
-0.018849103,-0.078294054
-0.045370061,-0.087284043
-0.073308095,-0.089700237
-0.10951624,-0.086604908
-0.14914581,-0.063808732
-0.17449412,-0.0221899
-0.17477521,0.021623995
-0.16264385,0.048867825
-0.15592261,0.068459287
-0.14727786,0.088751376
-0.13747209,0.10390002
-0.13347465,0.12003162
-0.12713896,0.14280014
-0.11086882,0.17020656
-0.079678312,0.18942283
-0.049794585,0.19301867
-0.029212818,0.18999192
-0.011818266,0.19420557
0.010979893,0.19241752
0.029695667,0.18672052
0.045503851,0.1808814
0.057693917,0.17701799
0.075409703,0.17541815
0.095779151,0.16762078
0.11350509,0.15379661
0.12699462,0.13736576
0.13351543,0.11972298
0.13717048,0.10626177
0.13737088,0.095273323
0.14145195,0.091678046
0.15377659,0.083326571
0.16045418,0.069289319
0.16718927,0.058342155
0.17439543,0.040143397
0.17250715,0.024757667
0.17491703,0.010088092
0.16849816,-0.0059362892
0.1638848,-0.01409459
0.16375487,-0.020491742
0.16479224,-0.033816524
0.16283289,-0.044007976
0.15993257,-0.059487894
0.15388352,-0.070889093
0.14372759,-0.080106102
0.14275771,-0.085169747
0.13929823,-0.097416006
0.13380708,-0.10799454
0.1279036,-0.11918276
0.11885713,-0.13356593
0.10571942,-0.14158972
0.095798068,-0.14848839
0.087316319,-0.15525745
0.0755473,-0.16511074
0.061819218,-0.17081703
0.050106306,-0.17629918
0.038234968,-0.18088
0.024045765,-0.18821195
0.0071669254,-0.19235794
-0.012218161,-0.19319904
-0.028182415,-0.19010553
-0.044690859,-0.18731219
-0.059740297,-0.18149586
-0.069946975,-0.17408201
-0.080710113,-0.17554256
-0.10135683,-0.17248501
-0.11773708,-0.16163468
-0.13316916,-0.1506566
-0.14514503,-0.13823785
-0.15674271,-0.12467252
-0.16699147,-0.11202112
-0.17728086,-0.096748352
-0.18797901,-0.080630556
-0.19404013,-0.060970344
-0.19863303,-0.040422291
-0.199238,-0.019591812
-0.1955153,-0.00071843661
-0.19087549,0.015561694
-0.18712753,0.032005303
-0.17796035,0.048312854
-0.16835576,0.060342066
-0.16096723,0.06946253
-0.15269896,0.081915416
-0.14274709,0.088026978
-0.1377244,0.096390128
-0.12847948,0.10679323
-0.12144854,0.11510553
-0.10999048,0.12491283
-0.098120868,0.13237135
-0.086261526,0.13769794
-0.071294084,0.1424516
-0.059507627,0.14210327
-0.049998835,0.14199962
-0.041879114,0.14387085
-0.031594478,0.14422601
-0.023254102,0.14649782
-0.012123892,0.14672552
-0.0023132958,0.14808163
0.0084423712,0.14699623
0.017749447,0.14617756
0.02961565,0.14396644
0.041000146,0.14137593
0.050216328,0.13545877
0.058670308,0.13182631
0.067562141,0.12793462
0.078231476,0.12417325
0.089373566,0.1164154
0.097709782,0.10716781
0.10524787,0.098512538
0.11215161,0.088554218
0.11672573,0.077692643
0.12011592,0.067681387
0.12213048,0.059680548
0.12651512,0.051054973
0.12846546,0.039604656
0.12857668,0.030801024
0.12961568,0.024069181
0.13299902,0.016294876
0.13586752,0.0055692461
0.13721798,-0.0071321852
0.13506359,-0.02045458
0.13018429,-0.030939009
0.12516622,-0.039638638
0.12118135,-0.046780188
0.11998168,-0.055067141
0.11431874,-0.067094855
0.10780936,-0.074677192
0.10254291,-0.084483825
0.09203878,-0.092858195
0.083549745,-0.09777651
0.075179525,-0.10440196
0.064643279,-0.10834608
0.056944877,-0.1120116
0.047620919,-0.11695022
0.035887048,-0.12092124
0.02380619,-0.1223064
0.011023876,-0.12142128
0.0017083175,-0.11677772
-0.0051337294,-0.11449844
-0.013217352,-0.11414109
-0.022919467,-0.1129089
-0.033907931,-0.10882134
-0.041604843,-0.10265443
-0.049136873,-0.097666226
-0.056254543,-0.090455897
-0.059802242,-0.083388954
-0.064495251,-0.079952754
-0.071089789,-0.074226439
-0.075666502,-0.066998258
-0.07996732,-0.060202077
-0.083113119,-0.053199228
-0.088361837,-0.046725463
-0.091071814,-0.036439281
-0.092665292,-0.028343063
-0.093788825,-0.019120766
-0.092696965,-0.011284843
-0.094570361,-0.0024835921
-0.093250826,0.0095524732
-0.087331295,0.019285645
-0.081961468,0.024931861
-0.079092488,0.034173451
-0.071367212,0.042398494
-0.062837809,0.048338428
-0.05190704,0.053937729
-0.039880477,0.05249209
-0.033355497,0.049296133
-0.02817045,0.047228787
-0.026296247,0.045921586
-0.021178363,0.048614841
-0.011331025,0.047299203
-0.0056614471,0.041480068
-0.0022988555,0.036609583
-0.00088443217,0.029510032
-0.0022258263,0.02604574
-0.0032544462,0.023239173
-0.0046031373,0.022952665
-0.0023976415,0.021259863
-0.0021081304,0.017852956
-0.0045563322,0.012698397
-0.0099774785,0.012467315
-0.014214291,0.01421547
-0.016233034,0.019317925
-0.014523149,0.022751197
-0.012183064,0.025145361
-0.0095013818,0.025675386
-0.0071914974,0.025273934
-0.0057550017,0.023767769
-0.0071420586,0.021805959
-0.0075545139,0.023517314
-0.0073359651,0.023710864
-0.0077278661,0.024685696
-0.0082926834,0.02530973
-0.0089115687,0.028771833
-0.0051716608,0.030950945
-0.003208414,0.028582977
-0.0053356113,0.028506875
-0.0053295949,0.03101862
-0.0054219691,0.032392755
-0.0068779984,0.036367953
-0.0029243187,0.042217713
0.0015573738,0.042670012
0.0025630416,0.043461051
0.0039846352,0.047740143
0.0098799253,0.051710155
0.015144696,0.053683389
0.021528587,0.055157185
0.028884172,0.054956514
0.034567975,0.053315029
0.040197611,0.052246425
0.046319325,0.051292375
0.054298606,0.048998956
0.061700035,0.044049401
0.066876963,0.038764454
0.073811702,0.034894306
0.080599144,0.026643433
0.086161658,0.019737063
0.092240274,0.0098192431
0.098080084,-0.0022279776
0.10020422,-0.018257748
0.095924392,-0.03484305
0.08863046,-0.047148
0.080753103,-0.057754446
0.071234323,-0.067192614
0.061216291,-0.07378193
0.049359791,-0.080034405
0.03777213,-0.082145914
0.025943941,-0.083675705
0.015022979,-0.081874222
0.0055896179,-0.078510948
-0.0025395558,-0.073754996
-0.0078187892,-0.070549339
-0.014172913,-0.065348484
-0.018129397,-0.058442105
-0.017425086,-0.054649696
-0.019663654,-0.054304603
-0.023879386,-0.052035425
-0.028562715,-0.049050737
-0.030975983,-0.043257449
END
BEGIN
0.020417811,0.12688127
0.031436998,0.13107643
0.043417674,0.13363975
0.0567532,0.13782512
0.076698869,0.14020313
0.095242709,0.13428423
0.1123518,0.12577027
0.12456771,0.11799463
0.1411072,0.11266007
0.16088729,0.098774903
0.17529003,0.080632485
0.18684873,0.061569616
0.19463529,0.039257333
0.19680974,0.020253619
0.20243414,0.00013168227
0.20276283,-0.023037106
0.19757669,-0.04442716
0.19318794,-0.060301177
0.18951248,-0.07867378
0.18358952,-0.099775195
0.17079344,-0.11934081
0.15638965,-0.13365951
0.14364386,-0.14437281
0.13262628,-0.15435913
0.12406896,-0.16633208
0.11313442,-0.18165299
0.096238576,-0.19896914
0.074664764,-0.21320444
0.049765177,-0.22042087
0.027938057,-0.2256996
0.0054282947,-0.22989531
-0.020546,-0.23427033
-0.050055183,-0.23048824
-0.077364691,-0.2237498
-0.10343697,-0.21133749
-0.12801021,-0.19321668
-0.14313625,-0.17414986
-0.15891807,-0.15647686
-0.17327508,-0.13895151
-0.18777262,-0.11590329
-0.19796346,-0.093523622
-0.20637716,-0.066011705
-0.20891875,-0.037149154
-0.20414641,-0.0083114281
-0.19569178,0.012082644
-0.19199592,0.0360584
-0.17759147,0.0637578
-0.15591355,0.08004868
-0.142041,0.094753288
-0.12001891,0.11322237
-0.092172943,0.12082896
-0.068994366,0.11999408
-0.047034666,0.12216143
-0.022926502,0.11602706
-0.0070770443,0.10751098
0.012603525,0.10236429
0.034915619,0.088741511
0.053101219,0.066919178
0.066434756,0.042756546
0.075718313,0.0080169579
0.065350212,-0.032487348
0.033525005,-0.058830686
0.0074870982,-0.060670875
-0.0032675769,-0.064353019
-0.018732641,-0.078216933
-0.04526468,-0.087124862
-0.073146708,-0.089652672
-0.10956609,-0.086480446
-0.14902568,-0.06381382
-0.1743104,-0.022185689
-0.17455225,0.021659952
-0.16235119,0.048640143
-0.15595485,0.068434477
-0.1471736,0.088652469
-0.13738911,0.10360236
-0.13351576,0.11960609
-0.12721054,0.14267175
-0.11082648,0.1700796
-0.079662599,0.1890678
-0.049755163,0.19282441
